
T1E54 000:329 SEGGER J-Link V4.94j Log File (0001ms, 0266ms total)
T1E54 000:329 DLL Compiled: Dec 10 2014 13:52:41 (0001ms, 0266ms total)
T1E54 000:329 Logging started @ 2015-06-18 18:57 (0001ms, 0266ms total)
T1E54 000:330 JLINK_SetWarnOutHandler(...) (0000ms, 0266ms total)
T1E54 000:330 JLINK_OpenEx(...)
Firmware: J-Link ARM V7 compiled Jun 20 2012 19:45:53
Hardware: V7.00
S/N: 19087980
Feature(s): RDI, FlashDL, FlashBP, JFlash, GDBFull  returns O.K. (0262ms, 0528ms total)
T1E54 000:592 JLINK_SetErrorOutHandler(...) (0000ms, 0528ms total)
T1E54 000:592 JLINK_ExecCommand("ProjectFile = "E:\MICO\MICO_GIT_MXCHIP\mico\Projects\MX1101\COM.MXCHIP.FogCloud\RVMDK\JLinkSettings.ini"", ...)Device "UNSPECIFIED" selected.  returns 0x00 (0023ms, 0551ms total)
T1E54 000:624 JLINK_ExecCommand("Device = ARMCM3", ...)Device "UNSPECIFIED" selected.  returns 0x00 (0008ms, 0559ms total)
T1E54 000:632 JLINK_ExecCommand("DisableConnectionTimeout", ...)  returns 0x01 (0000ms, 0560ms total)
T1E54 000:633 JLINK_GetHardwareVersion()  returns 0x11170 (0000ms, 0560ms total)
T1E54 000:633 JLINK_GetDLLVersion()  returns 49410 (0000ms, 0560ms total)
T1E54 000:633 JLINK_GetFirmwareString(...) (0000ms, 0560ms total)
T1E54 000:648 JLINK_GetDLLVersion()  returns 49410 (0000ms, 0560ms total)
T1E54 000:648 JLINK_GetCompileDateTime() (0000ms, 0560ms total)
T1E54 000:653 JLINK_GetFirmwareString(...) (0000ms, 0560ms total)
T1E54 000:658 JLINK_GetHardwareVersion()  returns 0x11170 (0001ms, 0561ms total)
T1E54 000:673 JLINK_TIF_Select(JLINKARM_TIF_SWD)  returns 0x00 (0001ms, 0562ms total)
T1E54 000:674 JLINK_SetMaxSpeed() >0x108 TIF>Found SWD-DP with ID 0x2BA01477 >0x0D TIF> >0x21 TIF> >0x0D TIF> >0x28 TIF> >0x0D TIF> >0x28 TIF> >0x0D TIF> >0x21 TIF> >0x0D TIF> >0x28 TIF> >0x0D TIF> >0x21 TIF> >0x0D TIF> >0x21 TIF> >0x0D TIF> >0x21 TIF> >0x0D TIF> >0x28 TIF> >0x0D TIF> >0x21 TIF> >0x0D TIF> >0x28 TIF> >0x0D TIF> >0x28 TIF> >0x0D TIF> >0x21 TIF> >0x0D TIF> >0x28 TIF> >0x0D TIF> >0x28 TIF> >0x0D TIF> >0x28 TIF> >0x0D TIF> >0x21 TIF> >0x0D TIF> >0x21 TIF> >0x0D TIF> >0x28 TIF> >0x0D TIF>
 >0x21 TIF> >0x0D TIF> >0x21 TIF>Found Cortex-M3 r2p1, Little endian. >0x0D TIF> >0x28 TIF> -- CPU_WriteMem(4 bytes @ 0xE0002000) -- CPU_ReadMem(4 bytes @ 0xE000EDF0) -- CPU_ReadMem(4 bytes @ 0xE0002000)FPUnit: 6 code (BP) slots and 2 literal slots -- CPU_ReadMem(4 bytes @ 0xE000EDFC) -- CPU_ReadMem(4 bytes @ 0xE0001000) -- CPU_WriteMem(4 bytes @ 0xE0001000) -- CPU_ReadMem(4 bytes @ 0xE000ED88) -- CPU_WriteMem(4 bytes @ 0xE000ED88) -- CPU_ReadMem(4 bytes @ 0xE000ED88)
 -- CPU_WriteMem(4 bytes @ 0xE000ED88) -- CPU_ReadMem(4 bytes @ 0xE00FF010)TPIU fitted. -- CPU_ReadMem(4 bytes @ 0xE00FF014) -- CPU_ReadMem(4 bytes @ 0xE00FF018) (0059ms, 0621ms total)
T1E54 000:733 JLINK_GetSpeed()  returns 0x7D0 (0000ms, 0621ms total)
T1E54 000:733 JLINK_GetId() >0x0D TIF> >0x21 TIF>  returns 0x2BA01477 (0001ms, 0622ms total)
T1E54 000:734 JLINK_CORE_GetFound()  returns 0x30000FF (0000ms, 0622ms total)
T1E54 000:737 JLINK_ReadMem (0xE00FFFF0, 0x0010 Bytes, ...) -- CPU is running -- CPU_ReadMem(16 bytes @ 0xE00FFFF0) - Data: 0D 00 00 00 10 00 00 00 05 00 00 00 B1 00 00 00  returns 0x00 (0001ms, 0623ms total)
T1E54 000:738 JLINK_ReadMem (0xE00FFFD0, 0x0020 Bytes, ...) -- CPU is running -- CPU_ReadMem(32 bytes @ 0xE00FFFD0) - Data: 04 00 00 00 00 00 00 00 00 00 00 00 00 00 00 00 ...  returns 0x00 (0001ms, 0624ms total)
T1E54 000:739 JLINK_ReadMem (0xE00FF000, 0x0018 Bytes, ...) -- CPU is running -- CPU_ReadMem(24 bytes @ 0xE00FF000) - Data: 03 F0 F0 FF 03 20 F0 FF 03 30 F0 FF 03 10 F0 FF ...  returns 0x00 (0001ms, 0625ms total)
T1E54 000:740 JLINK_CORE_GetFound()  returns 0x30000FF (0000ms, 0625ms total)
T1E54 000:740 JLINK_ReadMemU32(0xE000ED00, 0x0001 Items, ...) -- CPU is running -- CPU_ReadMem(4 bytes @ 0xE000ED00) - Data: 31 C2 2F 41  returns 0x01 (0001ms, 0626ms total)
T1E54 000:741 JLINK_SetResetType(JLINKARM_RESET_TYPE_NORMAL)  returns JLINKARM_RESET_TYPE_NORMAL (0000ms, 0626ms total)
T1E54 000:741 JLINK_Reset() -- CPU_WriteMem(4 bytes @ 0xE0002000) -- CPU_ReadMem(4 bytes @ 0xE000EDFC) -- CPU_ReadMem(4 bytes @ 0xE0001000) (0014ms, 0640ms total)
T1E54 000:755 JLINK_Halt()  returns 0x00 (0000ms, 0640ms total)
T1E54 000:755 JLINK_IsHalted()  returns TRUE (0000ms, 0640ms total)
T1E54 000:755 JLINK_ReadMemU32(0xE000EDF0, 0x0001 Items, ...) -- CPU_ReadMem(4 bytes @ 0xE000EDF0) - Data: 03 00 03 00  returns 0x01 (0001ms, 0641ms total)
T1E54 000:756 JLINK_WriteU32(0xE000EDF0, 0xA05F0003) -- CPU_WriteMem(4 bytes @ 0xE000EDF0)  returns 0x00 (0001ms, 0642ms total)
T1E54 000:757 JLINK_WriteU32(0xE000EDFC, 0x01000000) -- CPU_WriteMem(4 bytes @ 0xE000EDFC)  returns 0x00 (0001ms, 0643ms total)
T1E54 000:785 JLINK_GetHWStatus(...)  returns 0x00 (0000ms, 0643ms total)
T1E54 000:794 JLINK_GetNumBPUnits(Type = 0xFFFFFF00)  returns 0x06 (0000ms, 0643ms total)
T1E54 000:794 JLINK_GetNumBPUnits(Type = 0xF0)  returns 0x2000 (0000ms, 0643ms total)
T1E54 000:794 JLINK_GetNumWPUnits()  returns 0x04 (0000ms, 0643ms total)
T1E54 000:802 JLINK_GetSpeed()  returns 0x7D0 (0000ms, 0643ms total)
T1E54 000:807 JLINK_ReadMemU32(0xE000E004, 0x0001 Items, ...) -- CPU_ReadMem(4 bytes @ 0xE000E004) - Data: 00 00 00 00  returns 0x01 (0000ms, 0643ms total)
T1E54 000:807 JLINK_ReadMemU32(0xE000E004, 0x0001 Items, ...) -- CPU_ReadMem(4 bytes @ 0xE000E004) - Data: 00 00 00 00  returns 0x01 (0001ms, 0644ms total)
T1E54 000:808 JLINK_WriteMem(0xE0001000, 0x001C Bytes, ...) - Data: 01 00 00 00 00 00 00 00 00 00 00 00 00 00 00 00 ... -- CPU_WriteMem(28 bytes @ 0xE0001000)  returns 0x1C (0002ms, 0646ms total)
T1E54 000:810 JLINK_ReadMem (0xE0001000, 0x001C Bytes, ...) -- CPU_ReadMem(28 bytes @ 0xE0001000) - Data: 01 00 00 40 00 00 00 00 00 00 00 00 00 00 00 00 ...  returns 0x00 (0001ms, 0647ms total)
T1E54 000:870 JLINK_ReadReg(R0)  returns 0x00000000 (0000ms, 0647ms total)
T1E54 000:870 JLINK_ReadReg(R1)  returns 0x00000000 (0000ms, 0647ms total)
T1E54 000:870 JLINK_ReadReg(R2)  returns 0x00000000 (0000ms, 0647ms total)
T1E54 000:870 JLINK_ReadReg(R3)  returns 0x00000000 (0000ms, 0647ms total)
T1E54 000:870 JLINK_ReadReg(R4)  returns 0x00000000 (0000ms, 0647ms total)
T1E54 000:870 JLINK_ReadReg(R5)  returns 0x00000000 (0000ms, 0647ms total)
T1E54 000:870 JLINK_ReadReg(R6)  returns 0x00000000 (0000ms, 0647ms total)
T1E54 000:870 JLINK_ReadReg(R7)  returns 0x00000000 (0000ms, 0647ms total)
T1E54 000:870 JLINK_ReadReg(R8)  returns 0x00000000 (0000ms, 0647ms total)
T1E54 000:870 JLINK_ReadReg(R9)  returns 0x00000000 (0000ms, 0647ms total)
T1E54 000:870 JLINK_ReadReg(R10)  returns 0x00000000 (0000ms, 0647ms total)
T1E54 000:870 JLINK_ReadReg(R11)  returns 0x00000000 (0000ms, 0647ms total)
T1E54 000:870 JLINK_ReadReg(R12)  returns 0x00000000 (0000ms, 0647ms total)
T1E54 000:870 JLINK_ReadReg(R13 (SP))  returns 0x20000400 (0000ms, 0647ms total)
T1E54 000:870 JLINK_ReadReg(R14)  returns 0xFFFFFFFF (0000ms, 0647ms total)
T1E54 000:870 JLINK_ReadReg(R15 (PC))  returns 0x007C330C (0000ms, 0647ms total)
T1E54 000:870 JLINK_ReadReg(XPSR)  returns 0x01000000 (0000ms, 0647ms total)
T1E54 000:870 JLINK_ReadReg(MSP)  returns 0x20000400 (0000ms, 0647ms total)
T1E54 000:870 JLINK_ReadReg(PSP)  returns 0x00000000 (0000ms, 0647ms total)
T1E54 000:870 JLINK_ReadReg(CFBP)  returns 0x00000000 (0000ms, 0647ms total)
T1E54 000:898 JLINK_WriteMem(0x20007C00, 0x0004 Bytes, ...) - Data: 01 00 00 00 -- CPU_WriteMem(4 bytes @ 0x20007C00)  returns 0x04 (0001ms, 0648ms total)
T1E54 000:899 JLINK_WriteMem(0x20007C04, 0x0004 Bytes, ...) - Data: 00 00 00 00 -- CPU_WriteMem(4 bytes @ 0x20007C04)  returns 0x04 (0000ms, 0648ms total)
T1E54 000:899 JLINK_WriteMem(0x20007C08, 0x0004 Bytes, ...) - Data: 00 00 00 00 -- CPU_WriteMem(4 bytes @ 0x20007C08)  returns 0x04 (0001ms, 0649ms total)
T1E54 000:900 JLINK_WriteMem(0x20007C0C, 0x0004 Bytes, ...) - Data: 00 00 00 00 -- CPU_WriteMem(4 bytes @ 0x20007C0C)  returns 0x04 (0001ms, 0650ms total)
T1E54 000:901 JLINK_WriteMem(0x20007C10, 0x0004 Bytes, ...) - Data: 00 00 00 00 -- CPU_WriteMem(4 bytes @ 0x20007C10)  returns 0x04 (0000ms, 0650ms total)
T1E54 000:901 JLINK_WriteMem(0x20007C14, 0x0004 Bytes, ...) - Data: FF FF FF FF -- CPU_WriteMem(4 bytes @ 0x20007C14)  returns 0x04 (0001ms, 0651ms total)
T1E54 000:902 JLINK_WriteMem(0x20007C18, 0x0004 Bytes, ...) - Data: 00 00 00 00 -- CPU_WriteMem(4 bytes @ 0x20007C18)  returns 0x04 (0001ms, 0652ms total)
T1E54 000:903 JLINK_WriteMem(0x20007C1C, 0x0004 Bytes, ...) - Data: 4E 43 52 43 -- CPU_WriteMem(4 bytes @ 0x20007C1C)  returns 0x04 (0001ms, 0653ms total)
T1E54 000:904 JLINK_WriteMem(0x20007C20, 0x0004 Bytes, ...) - Data: 00 00 00 00 -- CPU_WriteMem(4 bytes @ 0x20007C20)  returns 0x04 (0000ms, 0653ms total)
T1E54 000:904 JLINK_WriteMem(0x20007C24, 0x0004 Bytes, ...) - Data: 00 A0 00 00 -- CPU_WriteMem(4 bytes @ 0x20007C24)  returns 0x04 (0001ms, 0654ms total)
T1E54 000:905 JLINK_Halt()  returns 0x00 (0000ms, 0654ms total)
T1E54 000:905 JLINK_IsHalted()  returns TRUE (0000ms, 0654ms total)
T1E54 000:909 JLINK_WriteMem(0x20000000, 0x3D48 Bytes, ...) - Data: 00 BE 0A E0 0D 78 2D 06 68 40 08 24 40 00 00 D3 ... -- CPU_WriteMem(15688 bytes @ 0x20000000)  returns 0x3D48 (0154ms, 0808ms total)
T1E54 001:063 JLINK_WriteReg(R0, 0x00000000)  returns 0x00 (0001ms, 0809ms total)
T1E54 001:064 JLINK_WriteReg(R1, 0x00B71B00)  returns 0x00 (0000ms, 0809ms total)
T1E54 001:064 JLINK_WriteReg(R2, 0x00000001)  returns 0x00 (0000ms, 0809ms total)
T1E54 001:064 JLINK_WriteReg(R3, 0x00000000)  returns 0x00 (0000ms, 0809ms total)
T1E54 001:064 JLINK_WriteReg(R4, 0x00000000)  returns 0x00 (0000ms, 0809ms total)
T1E54 001:064 JLINK_WriteReg(R5, 0x00000000)  returns 0x00 (0000ms, 0809ms total)
T1E54 001:064 JLINK_WriteReg(R6, 0x00000000)  returns 0x00 (0000ms, 0809ms total)
T1E54 001:064 JLINK_WriteReg(R7, 0x00000000)  returns 0x00 (0000ms, 0809ms total)
T1E54 001:064 JLINK_WriteReg(R8, 0x00000000)  returns 0x00 (0000ms, 0809ms total)
T1E54 001:064 JLINK_WriteReg(R9, 0x20003D00)  returns 0x00 (0000ms, 0809ms total)
T1E54 001:065 JLINK_WriteReg(R10, 0x00000000)  returns 0x00 (0000ms, 0810ms total)
T1E54 001:065 JLINK_WriteReg(R11, 0x00000000)  returns 0x00 (0000ms, 0810ms total)
T1E54 001:065 JLINK_WriteReg(R12, 0x00000000)  returns 0x00 (0000ms, 0810ms total)
T1E54 001:065 JLINK_WriteReg(R13 (SP), 0x20009000)  returns 0x00 (0000ms, 0810ms total)
T1E54 001:065 JLINK_WriteReg(R14, 0x20000001)  returns 0x00 (0000ms, 0810ms total)
T1E54 001:065 JLINK_WriteReg(R15 (PC), 0x200007AA)  returns 0x00 (0000ms, 0810ms total)
T1E54 001:065 JLINK_WriteReg(XPSR, 0x01000000)  returns 0x00 (0000ms, 0810ms total)
T1E54 001:065 JLINK_WriteReg(MSP, 0x20009000)  returns 0x00 (0000ms, 0810ms total)
T1E54 001:065 JLINK_WriteReg(PSP, 0x20009000)  returns 0x00 (0000ms, 0810ms total)
T1E54 001:065 JLINK_WriteReg(CFBP, 0x00000000)  returns 0x00 (0000ms, 0810ms total)
T1E54 001:065 JLINK_SetBPEx(Addr = 0x20000000, Type = 0xFFFFFFF2) -- CPU_ReadMem(4 bytes @ 0x20000000) -- CPU_WriteMem(4 bytes @ 0x20000000) -- CPU_ReadMem(4 bytes @ 0x20000000) -- CPU_WriteMem(4 bytes @ 0x20000000) -- CPU_ReadMem(2 bytes @ 0x20000000)  returns 0x00000001 (0004ms, 0814ms total)
T1E54 001:069 JLINK_Go() -- CPU_WriteMem(2 bytes @ 0x20000000) -- CPU_WriteMem(4 bytes @ 0xE0002008) -- CPU_WriteMem(4 bytes @ 0xE000200C) -- CPU_WriteMem(4 bytes @ 0xE0002010) -- CPU_WriteMem(4 bytes @ 0xE0002014) -- CPU_WriteMem(4 bytes @ 0xE0002018) -- CPU_WriteMem(4 bytes @ 0xE000201C) -- CPU_WriteMem(4 bytes @ 0xE0001004) (0008ms, 0822ms total)
T1E54 001:077 JLINK_IsHalted()  returns FALSE (0001ms, 0823ms total)
T1E54 001:191 JLINK_IsHalted() -- CPU_ReadMem(2 bytes @ 0x20000000)  returns TRUE (0004ms, 0826ms total)
T1E54 001:195 JLINK_ReadReg(R15 (PC))  returns 0x20000000 (0000ms, 0822ms total)
T1E54 001:195 JLINK_ClrBPEx(BPHandle = 0x00000001)  returns 0x00 (0000ms, 0822ms total)
T1E54 001:195 JLINK_ReadReg(R0)  returns 0x00000000 (0000ms, 0822ms total)
T1E54 001:195 JLINK_WriteReg(R0, 0x0000D000)  returns 0x00 (0001ms, 0823ms total)
T1E54 001:196 JLINK_WriteReg(R1, 0x00001000)  returns 0x00 (0000ms, 0823ms total)
T1E54 001:196 JLINK_WriteReg(R2, 0x000000FF)  returns 0x00 (0000ms, 0823ms total)
T1E54 001:196 JLINK_WriteReg(R3, 0x00000000)  returns 0x00 (0000ms, 0823ms total)
T1E54 001:196 JLINK_WriteReg(R4, 0x00000000)  returns 0x00 (0000ms, 0823ms total)
T1E54 001:196 JLINK_WriteReg(R5, 0x00000000)  returns 0x00 (0000ms, 0823ms total)
T1E54 001:196 JLINK_WriteReg(R6, 0x00000000)  returns 0x00 (0000ms, 0823ms total)
T1E54 001:196 JLINK_WriteReg(R7, 0x00000000)  returns 0x00 (0000ms, 0823ms total)
T1E54 001:196 JLINK_WriteReg(R8, 0x00000000)  returns 0x00 (0000ms, 0823ms total)
T1E54 001:196 JLINK_WriteReg(R9, 0x20003D00)  returns 0x00 (0000ms, 0823ms total)
T1E54 001:196 JLINK_WriteReg(R10, 0x00000000)  returns 0x00 (0000ms, 0823ms total)
T1E54 001:196 JLINK_WriteReg(R11, 0x00000000)  returns 0x00 (0000ms, 0823ms total)
T1E54 001:196 JLINK_WriteReg(R12, 0x00000000)  returns 0x00 (0000ms, 0823ms total)
T1E54 001:196 JLINK_WriteReg(R13 (SP), 0x20009000)  returns 0x00 (0000ms, 0823ms total)
T1E54 001:196 JLINK_WriteReg(R14, 0x20000001)  returns 0x00 (0000ms, 0823ms total)
T1E54 001:196 JLINK_WriteReg(R15 (PC), 0x20001A34)  returns 0x00 (0000ms, 0823ms total)
T1E54 001:196 JLINK_WriteReg(XPSR, 0x01000000)  returns 0x00 (0000ms, 0823ms total)
T1E54 001:196 JLINK_WriteReg(MSP, 0x20009000)  returns 0x00 (0000ms, 0823ms total)
T1E54 001:196 JLINK_WriteReg(PSP, 0x20009000)  returns 0x00 (0000ms, 0823ms total)
T1E54 001:196 JLINK_WriteReg(CFBP, 0x00000000)  returns 0x00 (0000ms, 0823ms total)
T1E54 001:196 JLINK_SetBPEx(Addr = 0x20000000, Type = 0xFFFFFFF2)  returns 0x00000002 (0000ms, 0823ms total)
T1E54 001:196 JLINK_Go() (0002ms, 0825ms total)
T1E54 001:198 JLINK_IsHalted() -- CPU_ReadMem(2 bytes @ 0x20000000)  returns TRUE (0004ms, 0829ms total)
T1E54 001:202 JLINK_ReadReg(R15 (PC))  returns 0x20000000 (0000ms, 0825ms total)
T1E54 001:202 JLINK_ClrBPEx(BPHandle = 0x00000002)  returns 0x00 (0000ms, 0825ms total)
T1E54 001:202 JLINK_ReadReg(R0)  returns 0xFFFFFFFF (0000ms, 0825ms total)
T1E54 001:202 JLINK_WriteReg(R0, 0x0000D000)  returns 0x00 (0000ms, 0825ms total)
T1E54 001:202 JLINK_WriteReg(R1, 0x00001000)  returns 0x00 (0000ms, 0825ms total)
T1E54 001:202 JLINK_WriteReg(R2, 0x000000FF)  returns 0x00 (0000ms, 0825ms total)
T1E54 001:202 JLINK_WriteReg(R3, 0x00000000)  returns 0x00 (0000ms, 0825ms total)
T1E54 001:202 JLINK_WriteReg(R4, 0x00000000)  returns 0x00 (0000ms, 0825ms total)
T1E54 001:202 JLINK_WriteReg(R5, 0x00000000)  returns 0x00 (0000ms, 0825ms total)
T1E54 001:202 JLINK_WriteReg(R6, 0x00000000)  returns 0x00 (0001ms, 0826ms total)
T1E54 001:203 JLINK_WriteReg(R7, 0x00000000)  returns 0x00 (0000ms, 0826ms total)
T1E54 001:203 JLINK_WriteReg(R8, 0x00000000)  returns 0x00 (0000ms, 0826ms total)
T1E54 001:203 JLINK_WriteReg(R9, 0x20003D00)  returns 0x00 (0000ms, 0826ms total)
T1E54 001:203 JLINK_WriteReg(R10, 0x00000000)  returns 0x00 (0000ms, 0826ms total)
T1E54 001:203 JLINK_WriteReg(R11, 0x00000000)  returns 0x00 (0000ms, 0826ms total)
T1E54 001:203 JLINK_WriteReg(R12, 0x00000000)  returns 0x00 (0000ms, 0826ms total)
T1E54 001:203 JLINK_WriteReg(R13 (SP), 0x20009000)  returns 0x00 (0000ms, 0826ms total)
T1E54 001:203 JLINK_WriteReg(R14, 0x20000001)  returns 0x00 (0000ms, 0826ms total)
T1E54 001:203 JLINK_WriteReg(R15 (PC), 0x2000139E)  returns 0x00 (0000ms, 0826ms total)
T1E54 001:203 JLINK_WriteReg(XPSR, 0x01000000)  returns 0x00 (0000ms, 0826ms total)
T1E54 001:203 JLINK_WriteReg(MSP, 0x20009000)  returns 0x00 (0000ms, 0826ms total)
T1E54 001:203 JLINK_WriteReg(PSP, 0x20009000)  returns 0x00 (0000ms, 0826ms total)
T1E54 001:203 JLINK_WriteReg(CFBP, 0x00000000)  returns 0x00 (0000ms, 0826ms total)
T1E54 001:203 JLINK_SetBPEx(Addr = 0x20000000, Type = 0xFFFFFFF2)  returns 0x00000003 (0000ms, 0826ms total)
T1E54 001:203 JLINK_Go() (0001ms, 0827ms total)
T1E54 001:204 JLINK_IsHalted()  returns FALSE (0001ms, 0828ms total)
T1E54 001:210 JLINK_IsHalted()  returns FALSE (0000ms, 0827ms total)
T1E54 001:212 JLINK_IsHalted()  returns FALSE (0000ms, 0827ms total)
T1E54 001:214 JLINK_IsHalted()  returns FALSE (0000ms, 0827ms total)
T1E54 001:216 JLINK_IsHalted()  returns FALSE (0000ms, 0827ms total)
T1E54 001:222 JLINK_IsHalted()  returns FALSE (0000ms, 0827ms total)
T1E54 001:224 JLINK_IsHalted()  returns FALSE (0000ms, 0827ms total)
T1E54 001:226 JLINK_IsHalted()  returns FALSE (0000ms, 0827ms total)
T1E54 001:228 JLINK_IsHalted()  returns FALSE (0000ms, 0827ms total)
T1E54 001:244 JLINK_IsHalted() -- CPU_ReadMem(2 bytes @ 0x20000000)  returns TRUE (0004ms, 0831ms total)
T1E54 001:248 JLINK_ReadReg(R15 (PC))  returns 0x20000000 (0000ms, 0827ms total)
T1E54 001:248 JLINK_ClrBPEx(BPHandle = 0x00000003)  returns 0x00 (0000ms, 0827ms total)
T1E54 001:248 JLINK_ReadReg(R0)  returns 0x00000000 (0000ms, 0827ms total)
T1E54 001:249 JLINK_WriteReg(R0, 0x0000E000)  returns 0x00 (0000ms, 0827ms total)
T1E54 001:249 JLINK_WriteReg(R1, 0x00001000)  returns 0x00 (0000ms, 0827ms total)
T1E54 001:249 JLINK_WriteReg(R2, 0x000000FF)  returns 0x00 (0000ms, 0827ms total)
T1E54 001:249 JLINK_WriteReg(R3, 0x00000000)  returns 0x00 (0000ms, 0827ms total)
T1E54 001:249 JLINK_WriteReg(R4, 0x00000000)  returns 0x00 (0000ms, 0827ms total)
T1E54 001:249 JLINK_WriteReg(R5, 0x00000000)  returns 0x00 (0000ms, 0827ms total)
T1E54 001:249 JLINK_WriteReg(R6, 0x00000000)  returns 0x00 (0000ms, 0827ms total)
T1E54 001:249 JLINK_WriteReg(R7, 0x00000000)  returns 0x00 (0000ms, 0827ms total)
T1E54 001:249 JLINK_WriteReg(R8, 0x00000000)  returns 0x00 (0000ms, 0827ms total)
T1E54 001:249 JLINK_WriteReg(R9, 0x20003D00)  returns 0x00 (0000ms, 0827ms total)
T1E54 001:249 JLINK_WriteReg(R10, 0x00000000)  returns 0x00 (0000ms, 0827ms total)
T1E54 001:249 JLINK_WriteReg(R11, 0x00000000)  returns 0x00 (0000ms, 0827ms total)
T1E54 001:249 JLINK_WriteReg(R12, 0x00000000)  returns 0x00 (0000ms, 0827ms total)
T1E54 001:249 JLINK_WriteReg(R13 (SP), 0x20009000)  returns 0x00 (0000ms, 0827ms total)
T1E54 001:249 JLINK_WriteReg(R14, 0x20000001)  returns 0x00 (0000ms, 0827ms total)
T1E54 001:249 JLINK_WriteReg(R15 (PC), 0x20001A34)  returns 0x00 (0000ms, 0827ms total)
T1E54 001:249 JLINK_WriteReg(XPSR, 0x01000000)  returns 0x00 (0000ms, 0827ms total)
T1E54 001:249 JLINK_WriteReg(MSP, 0x20009000)  returns 0x00 (0000ms, 0827ms total)
T1E54 001:249 JLINK_WriteReg(PSP, 0x20009000)  returns 0x00 (0000ms, 0827ms total)
T1E54 001:249 JLINK_WriteReg(CFBP, 0x00000000)  returns 0x00 (0000ms, 0827ms total)
T1E54 001:249 JLINK_SetBPEx(Addr = 0x20000000, Type = 0xFFFFFFF2)  returns 0x00000004 (0000ms, 0827ms total)
T1E54 001:249 JLINK_Go() (0002ms, 0829ms total)
T1E54 001:251 JLINK_IsHalted() -- CPU_ReadMem(2 bytes @ 0x20000000)  returns TRUE (0005ms, 0834ms total)
T1E54 001:256 JLINK_ReadReg(R15 (PC))  returns 0x20000000 (0000ms, 0829ms total)
T1E54 001:256 JLINK_ClrBPEx(BPHandle = 0x00000004)  returns 0x00 (0000ms, 0829ms total)
T1E54 001:256 JLINK_ReadReg(R0)  returns 0xFFFFFFFF (0000ms, 0829ms total)
T1E54 001:256 JLINK_WriteReg(R0, 0x0000E000)  returns 0x00 (0000ms, 0829ms total)
T1E54 001:256 JLINK_WriteReg(R1, 0x00001000)  returns 0x00 (0000ms, 0829ms total)
T1E54 001:256 JLINK_WriteReg(R2, 0x000000FF)  returns 0x00 (0000ms, 0829ms total)
T1E54 001:256 JLINK_WriteReg(R3, 0x00000000)  returns 0x00 (0000ms, 0829ms total)
T1E54 001:256 JLINK_WriteReg(R4, 0x00000000)  returns 0x00 (0000ms, 0829ms total)
T1E54 001:256 JLINK_WriteReg(R5, 0x00000000)  returns 0x00 (0000ms, 0829ms total)
T1E54 001:256 JLINK_WriteReg(R6, 0x00000000)  returns 0x00 (0000ms, 0829ms total)
T1E54 001:256 JLINK_WriteReg(R7, 0x00000000)  returns 0x00 (0000ms, 0829ms total)
T1E54 001:256 JLINK_WriteReg(R8, 0x00000000)  returns 0x00 (0000ms, 0829ms total)
T1E54 001:256 JLINK_WriteReg(R9, 0x20003D00)  returns 0x00 (0000ms, 0829ms total)
T1E54 001:256 JLINK_WriteReg(R10, 0x00000000)  returns 0x00 (0000ms, 0829ms total)
T1E54 001:256 JLINK_WriteReg(R11, 0x00000000)  returns 0x00 (0000ms, 0829ms total)
T1E54 001:256 JLINK_WriteReg(R12, 0x00000000)  returns 0x00 (0000ms, 0829ms total)
T1E54 001:256 JLINK_WriteReg(R13 (SP), 0x20009000)  returns 0x00 (0000ms, 0829ms total)
T1E54 001:256 JLINK_WriteReg(R14, 0x20000001)  returns 0x00 (0000ms, 0829ms total)
T1E54 001:256 JLINK_WriteReg(R15 (PC), 0x2000139E)  returns 0x00 (0000ms, 0829ms total)
T1E54 001:256 JLINK_WriteReg(XPSR, 0x01000000)  returns 0x00 (0000ms, 0829ms total)
T1E54 001:256 JLINK_WriteReg(MSP, 0x20009000)  returns 0x00 (0000ms, 0829ms total)
T1E54 001:256 JLINK_WriteReg(PSP, 0x20009000)  returns 0x00 (0000ms, 0829ms total)
T1E54 001:256 JLINK_WriteReg(CFBP, 0x00000000)  returns 0x00 (0000ms, 0829ms total)
T1E54 001:256 JLINK_SetBPEx(Addr = 0x20000000, Type = 0xFFFFFFF2)  returns 0x00000005 (0000ms, 0829ms total)
T1E54 001:256 JLINK_Go() (0002ms, 0831ms total)
T1E54 001:258 JLINK_IsHalted()  returns FALSE (0001ms, 0832ms total)
T1E54 001:262 JLINK_IsHalted()  returns FALSE (0000ms, 0831ms total)
T1E54 001:264 JLINK_IsHalted()  returns FALSE (0000ms, 0831ms total)
T1E54 001:271 JLINK_IsHalted()  returns FALSE (0000ms, 0831ms total)
T1E54 001:273 JLINK_IsHalted()  returns FALSE (0000ms, 0831ms total)
T1E54 001:277 JLINK_IsHalted()  returns FALSE (0000ms, 0831ms total)
T1E54 001:279 JLINK_IsHalted()  returns FALSE (0000ms, 0831ms total)
T1E54 001:300 JLINK_IsHalted()  returns FALSE (0000ms, 0831ms total)
T1E54 001:304 JLINK_IsHalted() -- CPU_ReadMem(2 bytes @ 0x20000000)  returns TRUE (0003ms, 0834ms total)
T1E54 001:307 JLINK_ReadReg(R15 (PC))  returns 0x20000000 (0000ms, 0831ms total)
T1E54 001:307 JLINK_ClrBPEx(BPHandle = 0x00000005)  returns 0x00 (0000ms, 0831ms total)
T1E54 001:307 JLINK_ReadReg(R0)  returns 0x00000000 (0000ms, 0831ms total)
T1E54 001:308 JLINK_WriteReg(R0, 0x0000F000)  returns 0x00 (0000ms, 0831ms total)
T1E54 001:308 JLINK_WriteReg(R1, 0x00001000)  returns 0x00 (0000ms, 0831ms total)
T1E54 001:308 JLINK_WriteReg(R2, 0x000000FF)  returns 0x00 (0000ms, 0831ms total)
T1E54 001:308 JLINK_WriteReg(R3, 0x00000000)  returns 0x00 (0000ms, 0831ms total)
T1E54 001:308 JLINK_WriteReg(R4, 0x00000000)  returns 0x00 (0000ms, 0831ms total)
T1E54 001:308 JLINK_WriteReg(R5, 0x00000000)  returns 0x00 (0000ms, 0831ms total)
T1E54 001:308 JLINK_WriteReg(R6, 0x00000000)  returns 0x00 (0000ms, 0831ms total)
T1E54 001:308 JLINK_WriteReg(R7, 0x00000000)  returns 0x00 (0000ms, 0831ms total)
T1E54 001:308 JLINK_WriteReg(R8, 0x00000000)  returns 0x00 (0000ms, 0831ms total)
T1E54 001:308 JLINK_WriteReg(R9, 0x20003D00)  returns 0x00 (0000ms, 0831ms total)
T1E54 001:308 JLINK_WriteReg(R10, 0x00000000)  returns 0x00 (0000ms, 0831ms total)
T1E54 001:308 JLINK_WriteReg(R11, 0x00000000)  returns 0x00 (0000ms, 0831ms total)
T1E54 001:308 JLINK_WriteReg(R12, 0x00000000)  returns 0x00 (0000ms, 0831ms total)
T1E54 001:308 JLINK_WriteReg(R13 (SP), 0x20009000)  returns 0x00 (0000ms, 0831ms total)
T1E54 001:308 JLINK_WriteReg(R14, 0x20000001)  returns 0x00 (0000ms, 0831ms total)
T1E54 001:308 JLINK_WriteReg(R15 (PC), 0x20001A34)  returns 0x00 (0000ms, 0831ms total)
T1E54 001:308 JLINK_WriteReg(XPSR, 0x01000000)  returns 0x00 (0000ms, 0831ms total)
T1E54 001:308 JLINK_WriteReg(MSP, 0x20009000)  returns 0x00 (0000ms, 0831ms total)
T1E54 001:308 JLINK_WriteReg(PSP, 0x20009000)  returns 0x00 (0000ms, 0831ms total)
T1E54 001:308 JLINK_WriteReg(CFBP, 0x00000000)  returns 0x00 (0000ms, 0831ms total)
T1E54 001:308 JLINK_SetBPEx(Addr = 0x20000000, Type = 0xFFFFFFF2)  returns 0x00000006 (0000ms, 0831ms total)
T1E54 001:308 JLINK_Go() (0002ms, 0833ms total)
T1E54 001:310 JLINK_IsHalted() -- CPU_ReadMem(2 bytes @ 0x20000000)  returns TRUE (0006ms, 0839ms total)
T1E54 001:316 JLINK_ReadReg(R15 (PC))  returns 0x20000000 (0000ms, 0833ms total)
T1E54 001:316 JLINK_ClrBPEx(BPHandle = 0x00000006)  returns 0x00 (0000ms, 0833ms total)
T1E54 001:316 JLINK_ReadReg(R0)  returns 0xFFFFFFFF (0000ms, 0833ms total)
T1E54 001:316 JLINK_WriteReg(R0, 0x0000F000)  returns 0x00 (0000ms, 0833ms total)
T1E54 001:316 JLINK_WriteReg(R1, 0x00001000)  returns 0x00 (0000ms, 0833ms total)
T1E54 001:316 JLINK_WriteReg(R2, 0x000000FF)  returns 0x00 (0000ms, 0833ms total)
T1E54 001:316 JLINK_WriteReg(R3, 0x00000000)  returns 0x00 (0000ms, 0833ms total)
T1E54 001:316 JLINK_WriteReg(R4, 0x00000000)  returns 0x00 (0000ms, 0833ms total)
T1E54 001:316 JLINK_WriteReg(R5, 0x00000000)  returns 0x00 (0000ms, 0833ms total)
T1E54 001:316 JLINK_WriteReg(R6, 0x00000000)  returns 0x00 (0000ms, 0833ms total)
T1E54 001:316 JLINK_WriteReg(R7, 0x00000000)  returns 0x00 (0000ms, 0833ms total)
T1E54 001:316 JLINK_WriteReg(R8, 0x00000000)  returns 0x00 (0000ms, 0833ms total)
T1E54 001:316 JLINK_WriteReg(R9, 0x20003D00)  returns 0x00 (0000ms, 0833ms total)
T1E54 001:316 JLINK_WriteReg(R10, 0x00000000)  returns 0x00 (0000ms, 0833ms total)
T1E54 001:316 JLINK_WriteReg(R11, 0x00000000)  returns 0x00 (0000ms, 0833ms total)
T1E54 001:316 JLINK_WriteReg(R12, 0x00000000)  returns 0x00 (0000ms, 0833ms total)
T1E54 001:316 JLINK_WriteReg(R13 (SP), 0x20009000)  returns 0x00 (0000ms, 0833ms total)
T1E54 001:316 JLINK_WriteReg(R14, 0x20000001)  returns 0x00 (0000ms, 0833ms total)
T1E54 001:316 JLINK_WriteReg(R15 (PC), 0x2000139E)  returns 0x00 (0000ms, 0833ms total)
T1E54 001:316 JLINK_WriteReg(XPSR, 0x01000000)  returns 0x00 (0000ms, 0833ms total)
T1E54 001:316 JLINK_WriteReg(MSP, 0x20009000)  returns 0x00 (0000ms, 0833ms total)
T1E54 001:316 JLINK_WriteReg(PSP, 0x20009000)  returns 0x00 (0000ms, 0833ms total)
T1E54 001:316 JLINK_WriteReg(CFBP, 0x00000000)  returns 0x00 (0000ms, 0833ms total)
T1E54 001:316 JLINK_SetBPEx(Addr = 0x20000000, Type = 0xFFFFFFF2)  returns 0x00000007 (0000ms, 0833ms total)
T1E54 001:316 JLINK_Go() (0001ms, 0834ms total)
T1E54 001:317 JLINK_IsHalted()  returns FALSE (0001ms, 0835ms total)
T1E54 001:321 JLINK_IsHalted()  returns FALSE (0000ms, 0834ms total)
T1E54 001:323 JLINK_IsHalted()  returns FALSE (0000ms, 0834ms total)
T1E54 001:327 JLINK_IsHalted()  returns FALSE (0000ms, 0834ms total)
T1E54 001:331 JLINK_IsHalted()  returns FALSE (0000ms, 0834ms total)
T1E54 001:336 JLINK_IsHalted()  returns FALSE (0000ms, 0834ms total)
T1E54 001:340 JLINK_IsHalted()  returns FALSE (0000ms, 0834ms total)
T1E54 001:343 JLINK_IsHalted()  returns FALSE (0000ms, 0834ms total)
T1E54 001:361 JLINK_IsHalted() -- CPU_ReadMem(2 bytes @ 0x20000000)  returns TRUE (0004ms, 0838ms total)
T1E54 001:365 JLINK_ReadReg(R15 (PC))  returns 0x20000000 (0000ms, 0834ms total)
T1E54 001:365 JLINK_ClrBPEx(BPHandle = 0x00000007)  returns 0x00 (0000ms, 0834ms total)
T1E54 001:365 JLINK_ReadReg(R0)  returns 0x00000000 (0000ms, 0834ms total)
T1E54 001:366 JLINK_WriteReg(R0, 0x00010000)  returns 0x00 (0000ms, 0834ms total)
T1E54 001:366 JLINK_WriteReg(R1, 0x00001000)  returns 0x00 (0000ms, 0834ms total)
T1E54 001:366 JLINK_WriteReg(R2, 0x000000FF)  returns 0x00 (0000ms, 0834ms total)
T1E54 001:366 JLINK_WriteReg(R3, 0x00000000)  returns 0x00 (0000ms, 0834ms total)
T1E54 001:366 JLINK_WriteReg(R4, 0x00000000)  returns 0x00 (0000ms, 0834ms total)
T1E54 001:366 JLINK_WriteReg(R5, 0x00000000)  returns 0x00 (0000ms, 0834ms total)
T1E54 001:366 JLINK_WriteReg(R6, 0x00000000)  returns 0x00 (0000ms, 0834ms total)
T1E54 001:366 JLINK_WriteReg(R7, 0x00000000)  returns 0x00 (0000ms, 0834ms total)
T1E54 001:366 JLINK_WriteReg(R8, 0x00000000)  returns 0x00 (0000ms, 0834ms total)
T1E54 001:366 JLINK_WriteReg(R9, 0x20003D00)  returns 0x00 (0000ms, 0834ms total)
T1E54 001:366 JLINK_WriteReg(R10, 0x00000000)  returns 0x00 (0000ms, 0834ms total)
T1E54 001:366 JLINK_WriteReg(R11, 0x00000000)  returns 0x00 (0000ms, 0834ms total)
T1E54 001:366 JLINK_WriteReg(R12, 0x00000000)  returns 0x00 (0000ms, 0834ms total)
T1E54 001:366 JLINK_WriteReg(R13 (SP), 0x20009000)  returns 0x00 (0000ms, 0834ms total)
T1E54 001:366 JLINK_WriteReg(R14, 0x20000001)  returns 0x00 (0000ms, 0834ms total)
T1E54 001:366 JLINK_WriteReg(R15 (PC), 0x20001A34)  returns 0x00 (0000ms, 0834ms total)
T1E54 001:366 JLINK_WriteReg(XPSR, 0x01000000)  returns 0x00 (0000ms, 0834ms total)
T1E54 001:366 JLINK_WriteReg(MSP, 0x20009000)  returns 0x00 (0000ms, 0834ms total)
T1E54 001:366 JLINK_WriteReg(PSP, 0x20009000)  returns 0x00 (0000ms, 0834ms total)
T1E54 001:366 JLINK_WriteReg(CFBP, 0x00000000)  returns 0x00 (0000ms, 0834ms total)
T1E54 001:366 JLINK_SetBPEx(Addr = 0x20000000, Type = 0xFFFFFFF2)  returns 0x00000008 (0000ms, 0834ms total)
T1E54 001:366 JLINK_Go() (0002ms, 0836ms total)
T1E54 001:368 JLINK_IsHalted() -- CPU_ReadMem(2 bytes @ 0x20000000)  returns TRUE (0005ms, 0841ms total)
T1E54 001:373 JLINK_ReadReg(R15 (PC))  returns 0x20000000 (0000ms, 0836ms total)
T1E54 001:373 JLINK_ClrBPEx(BPHandle = 0x00000008)  returns 0x00 (0000ms, 0836ms total)
T1E54 001:373 JLINK_ReadReg(R0)  returns 0xFFFFFFFF (0000ms, 0836ms total)
T1E54 001:373 JLINK_WriteReg(R0, 0x00010000)  returns 0x00 (0000ms, 0836ms total)
T1E54 001:373 JLINK_WriteReg(R1, 0x00001000)  returns 0x00 (0000ms, 0836ms total)
T1E54 001:373 JLINK_WriteReg(R2, 0x000000FF)  returns 0x00 (0000ms, 0836ms total)
T1E54 001:373 JLINK_WriteReg(R3, 0x00000000)  returns 0x00 (0000ms, 0836ms total)
T1E54 001:373 JLINK_WriteReg(R4, 0x00000000)  returns 0x00 (0000ms, 0836ms total)
T1E54 001:373 JLINK_WriteReg(R5, 0x00000000)  returns 0x00 (0000ms, 0836ms total)
T1E54 001:373 JLINK_WriteReg(R6, 0x00000000)  returns 0x00 (0000ms, 0836ms total)
T1E54 001:373 JLINK_WriteReg(R7, 0x00000000)  returns 0x00 (0000ms, 0836ms total)
T1E54 001:373 JLINK_WriteReg(R8, 0x00000000)  returns 0x00 (0000ms, 0836ms total)
T1E54 001:373 JLINK_WriteReg(R9, 0x20003D00)  returns 0x00 (0000ms, 0836ms total)
T1E54 001:373 JLINK_WriteReg(R10, 0x00000000)  returns 0x00 (0000ms, 0836ms total)
T1E54 001:373 JLINK_WriteReg(R11, 0x00000000)  returns 0x00 (0000ms, 0836ms total)
T1E54 001:373 JLINK_WriteReg(R12, 0x00000000)  returns 0x00 (0000ms, 0836ms total)
T1E54 001:373 JLINK_WriteReg(R13 (SP), 0x20009000)  returns 0x00 (0000ms, 0836ms total)
T1E54 001:373 JLINK_WriteReg(R14, 0x20000001)  returns 0x00 (0000ms, 0836ms total)
T1E54 001:373 JLINK_WriteReg(R15 (PC), 0x2000139E)  returns 0x00 (0000ms, 0836ms total)
T1E54 001:373 JLINK_WriteReg(XPSR, 0x01000000)  returns 0x00 (0000ms, 0836ms total)
T1E54 001:373 JLINK_WriteReg(MSP, 0x20009000)  returns 0x00 (0000ms, 0836ms total)
T1E54 001:373 JLINK_WriteReg(PSP, 0x20009000)  returns 0x00 (0000ms, 0836ms total)
T1E54 001:373 JLINK_WriteReg(CFBP, 0x00000000)  returns 0x00 (0000ms, 0836ms total)
T1E54 001:373 JLINK_SetBPEx(Addr = 0x20000000, Type = 0xFFFFFFF2)  returns 0x00000009 (0000ms, 0836ms total)
T1E54 001:373 JLINK_Go() (0002ms, 0838ms total)
T1E54 001:375 JLINK_IsHalted()  returns FALSE (0000ms, 0838ms total)
T1E54 001:382 JLINK_IsHalted()  returns FALSE (0000ms, 0838ms total)
T1E54 001:386 JLINK_IsHalted()  returns FALSE (0000ms, 0838ms total)
T1E54 001:390 JLINK_IsHalted()  returns FALSE (0000ms, 0838ms total)
T1E54 001:394 JLINK_IsHalted()  returns FALSE (0000ms, 0838ms total)
T1E54 001:398 JLINK_IsHalted()  returns FALSE (0000ms, 0838ms total)
T1E54 001:400 JLINK_IsHalted()  returns FALSE (0000ms, 0838ms total)
T1E54 001:404 JLINK_IsHalted()  returns FALSE (0000ms, 0838ms total)
T1E54 001:408 JLINK_IsHalted()  returns FALSE (0000ms, 0838ms total)
T1E54 001:412 JLINK_IsHalted()  returns FALSE (0000ms, 0838ms total)
T1E54 001:414 JLINK_IsHalted() -- CPU_ReadMem(2 bytes @ 0x20000000)  returns TRUE (0004ms, 0842ms total)
T1E54 001:418 JLINK_ReadReg(R15 (PC))  returns 0x20000000 (0000ms, 0838ms total)
T1E54 001:418 JLINK_ClrBPEx(BPHandle = 0x00000009)  returns 0x00 (0000ms, 0838ms total)
T1E54 001:418 JLINK_ReadReg(R0)  returns 0x00000000 (0000ms, 0838ms total)
T1E54 001:419 JLINK_WriteReg(R0, 0x00011000)  returns 0x00 (0000ms, 0838ms total)
T1E54 001:419 JLINK_WriteReg(R1, 0x00001000)  returns 0x00 (0000ms, 0838ms total)
T1E54 001:419 JLINK_WriteReg(R2, 0x000000FF)  returns 0x00 (0000ms, 0838ms total)
T1E54 001:419 JLINK_WriteReg(R3, 0x00000000)  returns 0x00 (0000ms, 0838ms total)
T1E54 001:419 JLINK_WriteReg(R4, 0x00000000)  returns 0x00 (0000ms, 0838ms total)
T1E54 001:419 JLINK_WriteReg(R5, 0x00000000)  returns 0x00 (0000ms, 0838ms total)
T1E54 001:419 JLINK_WriteReg(R6, 0x00000000)  returns 0x00 (0000ms, 0838ms total)
T1E54 001:419 JLINK_WriteReg(R7, 0x00000000)  returns 0x00 (0000ms, 0838ms total)
T1E54 001:419 JLINK_WriteReg(R8, 0x00000000)  returns 0x00 (0000ms, 0838ms total)
T1E54 001:419 JLINK_WriteReg(R9, 0x20003D00)  returns 0x00 (0000ms, 0838ms total)
T1E54 001:419 JLINK_WriteReg(R10, 0x00000000)  returns 0x00 (0000ms, 0838ms total)
T1E54 001:419 JLINK_WriteReg(R11, 0x00000000)  returns 0x00 (0000ms, 0838ms total)
T1E54 001:419 JLINK_WriteReg(R12, 0x00000000)  returns 0x00 (0000ms, 0838ms total)
T1E54 001:419 JLINK_WriteReg(R13 (SP), 0x20009000)  returns 0x00 (0000ms, 0838ms total)
T1E54 001:419 JLINK_WriteReg(R14, 0x20000001)  returns 0x00 (0000ms, 0838ms total)
T1E54 001:419 JLINK_WriteReg(R15 (PC), 0x20001A34)  returns 0x00 (0000ms, 0838ms total)
T1E54 001:419 JLINK_WriteReg(XPSR, 0x01000000)  returns 0x00 (0000ms, 0838ms total)
T1E54 001:419 JLINK_WriteReg(MSP, 0x20009000)  returns 0x00 (0000ms, 0838ms total)
T1E54 001:419 JLINK_WriteReg(PSP, 0x20009000)  returns 0x00 (0000ms, 0838ms total)
T1E54 001:419 JLINK_WriteReg(CFBP, 0x00000000)  returns 0x00 (0000ms, 0838ms total)
T1E54 001:419 JLINK_SetBPEx(Addr = 0x20000000, Type = 0xFFFFFFF2)  returns 0x0000000A (0000ms, 0838ms total)
T1E54 001:419 JLINK_Go() (0002ms, 0840ms total)
T1E54 001:421 JLINK_IsHalted() -- CPU_ReadMem(2 bytes @ 0x20000000)  returns TRUE (0005ms, 0845ms total)
T1E54 001:426 JLINK_ReadReg(R15 (PC))  returns 0x20000000 (0000ms, 0840ms total)
T1E54 001:426 JLINK_ClrBPEx(BPHandle = 0x0000000A)  returns 0x00 (0000ms, 0840ms total)
T1E54 001:426 JLINK_ReadReg(R0)  returns 0xFFFFFFFF (0000ms, 0840ms total)
T1E54 001:426 JLINK_WriteReg(R0, 0x00011000)  returns 0x00 (0000ms, 0840ms total)
T1E54 001:426 JLINK_WriteReg(R1, 0x00001000)  returns 0x00 (0000ms, 0840ms total)
T1E54 001:426 JLINK_WriteReg(R2, 0x000000FF)  returns 0x00 (0000ms, 0840ms total)
T1E54 001:426 JLINK_WriteReg(R3, 0x00000000)  returns 0x00 (0000ms, 0840ms total)
T1E54 001:426 JLINK_WriteReg(R4, 0x00000000)  returns 0x00 (0000ms, 0840ms total)
T1E54 001:426 JLINK_WriteReg(R5, 0x00000000)  returns 0x00 (0000ms, 0840ms total)
T1E54 001:426 JLINK_WriteReg(R6, 0x00000000)  returns 0x00 (0000ms, 0840ms total)
T1E54 001:426 JLINK_WriteReg(R7, 0x00000000)  returns 0x00 (0000ms, 0840ms total)
T1E54 001:426 JLINK_WriteReg(R8, 0x00000000)  returns 0x00 (0000ms, 0840ms total)
T1E54 001:426 JLINK_WriteReg(R9, 0x20003D00)  returns 0x00 (0000ms, 0840ms total)
T1E54 001:426 JLINK_WriteReg(R10, 0x00000000)  returns 0x00 (0000ms, 0840ms total)
T1E54 001:426 JLINK_WriteReg(R11, 0x00000000)  returns 0x00 (0000ms, 0840ms total)
T1E54 001:426 JLINK_WriteReg(R12, 0x00000000)  returns 0x00 (0000ms, 0840ms total)
T1E54 001:426 JLINK_WriteReg(R13 (SP), 0x20009000)  returns 0x00 (0000ms, 0840ms total)
T1E54 001:426 JLINK_WriteReg(R14, 0x20000001)  returns 0x00 (0000ms, 0840ms total)
T1E54 001:426 JLINK_WriteReg(R15 (PC), 0x2000139E)  returns 0x00 (0000ms, 0840ms total)
T1E54 001:426 JLINK_WriteReg(XPSR, 0x01000000)  returns 0x00 (0000ms, 0840ms total)
T1E54 001:426 JLINK_WriteReg(MSP, 0x20009000)  returns 0x00 (0000ms, 0840ms total)
T1E54 001:426 JLINK_WriteReg(PSP, 0x20009000)  returns 0x00 (0000ms, 0840ms total)
T1E54 001:426 JLINK_WriteReg(CFBP, 0x00000000)  returns 0x00 (0000ms, 0840ms total)
T1E54 001:426 JLINK_SetBPEx(Addr = 0x20000000, Type = 0xFFFFFFF2)  returns 0x0000000B (0000ms, 0840ms total)
T1E54 001:426 JLINK_Go() (0002ms, 0842ms total)
T1E54 001:428 JLINK_IsHalted()  returns FALSE (0000ms, 0842ms total)
T1E54 001:433 JLINK_IsHalted()  returns FALSE (0000ms, 0842ms total)
T1E54 001:437 JLINK_IsHalted()  returns FALSE (0000ms, 0842ms total)
T1E54 001:439 JLINK_IsHalted()  returns FALSE (0000ms, 0842ms total)
T1E54 001:443 JLINK_IsHalted()  returns FALSE (0000ms, 0842ms total)
T1E54 001:445 JLINK_IsHalted()  returns FALSE (0000ms, 0842ms total)
T1E54 001:447 JLINK_IsHalted()  returns FALSE (0000ms, 0842ms total)
T1E54 001:449 JLINK_IsHalted()  returns FALSE (0000ms, 0842ms total)
T1E54 001:463 JLINK_IsHalted()  returns FALSE (0000ms, 0842ms total)
T1E54 001:465 JLINK_IsHalted()  returns FALSE (0000ms, 0842ms total)
T1E54 001:467 JLINK_IsHalted() -- CPU_ReadMem(2 bytes @ 0x20000000)  returns TRUE (0004ms, 0846ms total)
T1E54 001:471 JLINK_ReadReg(R15 (PC))  returns 0x20000000 (0000ms, 0842ms total)
T1E54 001:471 JLINK_ClrBPEx(BPHandle = 0x0000000B)  returns 0x00 (0000ms, 0842ms total)
T1E54 001:471 JLINK_ReadReg(R0)  returns 0x00000000 (0000ms, 0842ms total)
T1E54 001:472 JLINK_WriteReg(R0, 0x00012000)  returns 0x00 (0000ms, 0842ms total)
T1E54 001:472 JLINK_WriteReg(R1, 0x00001000)  returns 0x00 (0000ms, 0842ms total)
T1E54 001:472 JLINK_WriteReg(R2, 0x000000FF)  returns 0x00 (0000ms, 0842ms total)
T1E54 001:472 JLINK_WriteReg(R3, 0x00000000)  returns 0x00 (0000ms, 0842ms total)
T1E54 001:472 JLINK_WriteReg(R4, 0x00000000)  returns 0x00 (0000ms, 0842ms total)
T1E54 001:472 JLINK_WriteReg(R5, 0x00000000)  returns 0x00 (0000ms, 0842ms total)
T1E54 001:472 JLINK_WriteReg(R6, 0x00000000)  returns 0x00 (0000ms, 0842ms total)
T1E54 001:472 JLINK_WriteReg(R7, 0x00000000)  returns 0x00 (0000ms, 0842ms total)
T1E54 001:472 JLINK_WriteReg(R8, 0x00000000)  returns 0x00 (0000ms, 0842ms total)
T1E54 001:472 JLINK_WriteReg(R9, 0x20003D00)  returns 0x00 (0000ms, 0842ms total)
T1E54 001:472 JLINK_WriteReg(R10, 0x00000000)  returns 0x00 (0000ms, 0842ms total)
T1E54 001:472 JLINK_WriteReg(R11, 0x00000000)  returns 0x00 (0000ms, 0842ms total)
T1E54 001:472 JLINK_WriteReg(R12, 0x00000000)  returns 0x00 (0000ms, 0842ms total)
T1E54 001:472 JLINK_WriteReg(R13 (SP), 0x20009000)  returns 0x00 (0000ms, 0842ms total)
T1E54 001:472 JLINK_WriteReg(R14, 0x20000001)  returns 0x00 (0000ms, 0842ms total)
T1E54 001:472 JLINK_WriteReg(R15 (PC), 0x20001A34)  returns 0x00 (0000ms, 0842ms total)
T1E54 001:472 JLINK_WriteReg(XPSR, 0x01000000)  returns 0x00 (0000ms, 0842ms total)
T1E54 001:472 JLINK_WriteReg(MSP, 0x20009000)  returns 0x00 (0000ms, 0842ms total)
T1E54 001:472 JLINK_WriteReg(PSP, 0x20009000)  returns 0x00 (0000ms, 0842ms total)
T1E54 001:472 JLINK_WriteReg(CFBP, 0x00000000)  returns 0x00 (0000ms, 0842ms total)
T1E54 001:472 JLINK_SetBPEx(Addr = 0x20000000, Type = 0xFFFFFFF2)  returns 0x0000000C (0000ms, 0842ms total)
T1E54 001:472 JLINK_Go() (0002ms, 0844ms total)
T1E54 001:474 JLINK_IsHalted() -- CPU_ReadMem(2 bytes @ 0x20000000)  returns TRUE (0005ms, 0849ms total)
T1E54 001:479 JLINK_ReadReg(R15 (PC))  returns 0x20000000 (0000ms, 0844ms total)
T1E54 001:479 JLINK_ClrBPEx(BPHandle = 0x0000000C)  returns 0x00 (0000ms, 0844ms total)
T1E54 001:479 JLINK_ReadReg(R0)  returns 0xFFFFFFFF (0000ms, 0844ms total)
T1E54 001:479 JLINK_WriteReg(R0, 0x00012000)  returns 0x00 (0000ms, 0844ms total)
T1E54 001:479 JLINK_WriteReg(R1, 0x00001000)  returns 0x00 (0000ms, 0844ms total)
T1E54 001:479 JLINK_WriteReg(R2, 0x000000FF)  returns 0x00 (0000ms, 0844ms total)
T1E54 001:479 JLINK_WriteReg(R3, 0x00000000)  returns 0x00 (0000ms, 0844ms total)
T1E54 001:479 JLINK_WriteReg(R4, 0x00000000)  returns 0x00 (0000ms, 0844ms total)
T1E54 001:479 JLINK_WriteReg(R5, 0x00000000)  returns 0x00 (0000ms, 0844ms total)
T1E54 001:479 JLINK_WriteReg(R6, 0x00000000)  returns 0x00 (0000ms, 0844ms total)
T1E54 001:479 JLINK_WriteReg(R7, 0x00000000)  returns 0x00 (0000ms, 0844ms total)
T1E54 001:479 JLINK_WriteReg(R8, 0x00000000)  returns 0x00 (0000ms, 0844ms total)
T1E54 001:479 JLINK_WriteReg(R9, 0x20003D00)  returns 0x00 (0000ms, 0844ms total)
T1E54 001:479 JLINK_WriteReg(R10, 0x00000000)  returns 0x00 (0000ms, 0844ms total)
T1E54 001:479 JLINK_WriteReg(R11, 0x00000000)  returns 0x00 (0000ms, 0844ms total)
T1E54 001:479 JLINK_WriteReg(R12, 0x00000000)  returns 0x00 (0000ms, 0844ms total)
T1E54 001:479 JLINK_WriteReg(R13 (SP), 0x20009000)  returns 0x00 (0000ms, 0844ms total)
T1E54 001:479 JLINK_WriteReg(R14, 0x20000001)  returns 0x00 (0000ms, 0844ms total)
T1E54 001:479 JLINK_WriteReg(R15 (PC), 0x2000139E)  returns 0x00 (0000ms, 0844ms total)
T1E54 001:479 JLINK_WriteReg(XPSR, 0x01000000)  returns 0x00 (0000ms, 0844ms total)
T1E54 001:479 JLINK_WriteReg(MSP, 0x20009000)  returns 0x00 (0000ms, 0844ms total)
T1E54 001:479 JLINK_WriteReg(PSP, 0x20009000)  returns 0x00 (0000ms, 0844ms total)
T1E54 001:479 JLINK_WriteReg(CFBP, 0x00000000)  returns 0x00 (0000ms, 0844ms total)
T1E54 001:479 JLINK_SetBPEx(Addr = 0x20000000, Type = 0xFFFFFFF2)  returns 0x0000000D (0000ms, 0844ms total)
T1E54 001:479 JLINK_Go() (0002ms, 0846ms total)
T1E54 001:481 JLINK_IsHalted()  returns FALSE (0000ms, 0846ms total)
T1E54 001:487 JLINK_IsHalted()  returns FALSE (0000ms, 0846ms total)
T1E54 001:489 JLINK_IsHalted()  returns FALSE (0000ms, 0846ms total)
T1E54 001:493 JLINK_IsHalted()  returns FALSE (0000ms, 0846ms total)
T1E54 001:495 JLINK_IsHalted()  returns FALSE (0000ms, 0846ms total)
T1E54 001:499 JLINK_IsHalted()  returns FALSE (0000ms, 0846ms total)
T1E54 001:501 JLINK_IsHalted()  returns FALSE (0000ms, 0846ms total)
T1E54 001:503 JLINK_IsHalted()  returns FALSE (0000ms, 0846ms total)
T1E54 001:505 JLINK_IsHalted()  returns FALSE (0000ms, 0846ms total)
T1E54 001:509 JLINK_IsHalted()  returns FALSE (0000ms, 0846ms total)
T1E54 001:511 JLINK_IsHalted()  returns FALSE (0000ms, 0846ms total)
T1E54 001:513 JLINK_IsHalted()  returns FALSE (0000ms, 0846ms total)
T1E54 001:515 JLINK_IsHalted()  returns FALSE (0000ms, 0846ms total)
T1E54 001:519 JLINK_IsHalted()  returns FALSE (0000ms, 0846ms total)
T1E54 001:523 JLINK_IsHalted() -- CPU_ReadMem(2 bytes @ 0x20000000)  returns TRUE (0004ms, 0850ms total)
T1E54 001:527 JLINK_ReadReg(R15 (PC))  returns 0x20000000 (0000ms, 0846ms total)
T1E54 001:527 JLINK_ClrBPEx(BPHandle = 0x0000000D)  returns 0x00 (0000ms, 0846ms total)
T1E54 001:527 JLINK_ReadReg(R0)  returns 0x00000000 (0000ms, 0846ms total)
T1E54 001:527 JLINK_WriteReg(R0, 0x00013000)  returns 0x00 (0000ms, 0846ms total)
T1E54 001:527 JLINK_WriteReg(R1, 0x00001000)  returns 0x00 (0000ms, 0846ms total)
T1E54 001:527 JLINK_WriteReg(R2, 0x000000FF)  returns 0x00 (0001ms, 0847ms total)
T1E54 001:528 JLINK_WriteReg(R3, 0x00000000)  returns 0x00 (0000ms, 0847ms total)
T1E54 001:528 JLINK_WriteReg(R4, 0x00000000)  returns 0x00 (0000ms, 0847ms total)
T1E54 001:528 JLINK_WriteReg(R5, 0x00000000)  returns 0x00 (0000ms, 0847ms total)
T1E54 001:528 JLINK_WriteReg(R6, 0x00000000)  returns 0x00 (0000ms, 0847ms total)
T1E54 001:528 JLINK_WriteReg(R7, 0x00000000)  returns 0x00 (0000ms, 0847ms total)
T1E54 001:528 JLINK_WriteReg(R8, 0x00000000)  returns 0x00 (0000ms, 0847ms total)
T1E54 001:528 JLINK_WriteReg(R9, 0x20003D00)  returns 0x00 (0000ms, 0847ms total)
T1E54 001:528 JLINK_WriteReg(R10, 0x00000000)  returns 0x00 (0000ms, 0847ms total)
T1E54 001:528 JLINK_WriteReg(R11, 0x00000000)  returns 0x00 (0000ms, 0847ms total)
T1E54 001:528 JLINK_WriteReg(R12, 0x00000000)  returns 0x00 (0000ms, 0847ms total)
T1E54 001:528 JLINK_WriteReg(R13 (SP), 0x20009000)  returns 0x00 (0000ms, 0847ms total)
T1E54 001:528 JLINK_WriteReg(R14, 0x20000001)  returns 0x00 (0000ms, 0847ms total)
T1E54 001:528 JLINK_WriteReg(R15 (PC), 0x20001A34)  returns 0x00 (0000ms, 0847ms total)
T1E54 001:528 JLINK_WriteReg(XPSR, 0x01000000)  returns 0x00 (0000ms, 0847ms total)
T1E54 001:528 JLINK_WriteReg(MSP, 0x20009000)  returns 0x00 (0000ms, 0847ms total)
T1E54 001:528 JLINK_WriteReg(PSP, 0x20009000)  returns 0x00 (0000ms, 0847ms total)
T1E54 001:528 JLINK_WriteReg(CFBP, 0x00000000)  returns 0x00 (0000ms, 0847ms total)
T1E54 001:528 JLINK_SetBPEx(Addr = 0x20000000, Type = 0xFFFFFFF2)  returns 0x0000000E (0000ms, 0847ms total)
T1E54 001:528 JLINK_Go() (0002ms, 0849ms total)
T1E54 001:530 JLINK_IsHalted() -- CPU_ReadMem(2 bytes @ 0x20000000)  returns TRUE (0004ms, 0853ms total)
T1E54 001:534 JLINK_ReadReg(R15 (PC))  returns 0x20000000 (0000ms, 0849ms total)
T1E54 001:534 JLINK_ClrBPEx(BPHandle = 0x0000000E)  returns 0x00 (0000ms, 0849ms total)
T1E54 001:534 JLINK_ReadReg(R0)  returns 0xFFFFFFFF (0000ms, 0849ms total)
T1E54 001:534 JLINK_WriteReg(R0, 0x00013000)  returns 0x00 (0000ms, 0849ms total)
T1E54 001:534 JLINK_WriteReg(R1, 0x00001000)  returns 0x00 (0000ms, 0849ms total)
T1E54 001:534 JLINK_WriteReg(R2, 0x000000FF)  returns 0x00 (0000ms, 0849ms total)
T1E54 001:534 JLINK_WriteReg(R3, 0x00000000)  returns 0x00 (0000ms, 0849ms total)
T1E54 001:534 JLINK_WriteReg(R4, 0x00000000)  returns 0x00 (0000ms, 0849ms total)
T1E54 001:534 JLINK_WriteReg(R5, 0x00000000)  returns 0x00 (0000ms, 0849ms total)
T1E54 001:534 JLINK_WriteReg(R6, 0x00000000)  returns 0x00 (0000ms, 0849ms total)
T1E54 001:534 JLINK_WriteReg(R7, 0x00000000)  returns 0x00 (0000ms, 0849ms total)
T1E54 001:534 JLINK_WriteReg(R8, 0x00000000)  returns 0x00 (0000ms, 0849ms total)
T1E54 001:534 JLINK_WriteReg(R9, 0x20003D00)  returns 0x00 (0000ms, 0849ms total)
T1E54 001:534 JLINK_WriteReg(R10, 0x00000000)  returns 0x00 (0000ms, 0849ms total)
T1E54 001:534 JLINK_WriteReg(R11, 0x00000000)  returns 0x00 (0000ms, 0849ms total)
T1E54 001:534 JLINK_WriteReg(R12, 0x00000000)  returns 0x00 (0000ms, 0849ms total)
T1E54 001:534 JLINK_WriteReg(R13 (SP), 0x20009000)  returns 0x00 (0000ms, 0849ms total)
T1E54 001:534 JLINK_WriteReg(R14, 0x20000001)  returns 0x00 (0000ms, 0849ms total)
T1E54 001:534 JLINK_WriteReg(R15 (PC), 0x2000139E)  returns 0x00 (0000ms, 0849ms total)
T1E54 001:534 JLINK_WriteReg(XPSR, 0x01000000)  returns 0x00 (0000ms, 0849ms total)
T1E54 001:534 JLINK_WriteReg(MSP, 0x20009000)  returns 0x00 (0000ms, 0849ms total)
T1E54 001:534 JLINK_WriteReg(PSP, 0x20009000)  returns 0x00 (0000ms, 0849ms total)
T1E54 001:534 JLINK_WriteReg(CFBP, 0x00000000)  returns 0x00 (0000ms, 0849ms total)
T1E54 001:534 JLINK_SetBPEx(Addr = 0x20000000, Type = 0xFFFFFFF2)  returns 0x0000000F (0000ms, 0849ms total)
T1E54 001:534 JLINK_Go() (0002ms, 0851ms total)
T1E54 001:536 JLINK_IsHalted()  returns FALSE (0001ms, 0852ms total)
T1E54 001:541 JLINK_IsHalted()  returns FALSE (0000ms, 0851ms total)
T1E54 001:543 JLINK_IsHalted()  returns FALSE (0000ms, 0851ms total)
T1E54 001:545 JLINK_IsHalted()  returns FALSE (0000ms, 0851ms total)
T1E54 001:547 JLINK_IsHalted()  returns FALSE (0000ms, 0851ms total)
T1E54 001:549 JLINK_IsHalted()  returns FALSE (0000ms, 0851ms total)
T1E54 001:551 JLINK_IsHalted()  returns FALSE (0000ms, 0851ms total)
T1E54 001:553 JLINK_IsHalted()  returns FALSE (0000ms, 0851ms total)
T1E54 001:555 JLINK_IsHalted()  returns FALSE (0000ms, 0851ms total)
T1E54 001:557 JLINK_IsHalted()  returns FALSE (0000ms, 0851ms total)
T1E54 001:571 JLINK_IsHalted()  returns FALSE (0000ms, 0851ms total)
T1E54 001:573 JLINK_IsHalted()  returns FALSE (0000ms, 0851ms total)
T1E54 001:575 JLINK_IsHalted() -- CPU_ReadMem(2 bytes @ 0x20000000)  returns TRUE (0004ms, 0855ms total)
T1E54 001:579 JLINK_ReadReg(R15 (PC))  returns 0x20000000 (0000ms, 0851ms total)
T1E54 001:579 JLINK_ClrBPEx(BPHandle = 0x0000000F)  returns 0x00 (0000ms, 0851ms total)
T1E54 001:579 JLINK_ReadReg(R0)  returns 0x00000000 (0000ms, 0851ms total)
T1E54 001:580 JLINK_WriteReg(R0, 0x00014000)  returns 0x00 (0000ms, 0851ms total)
T1E54 001:580 JLINK_WriteReg(R1, 0x00001000)  returns 0x00 (0000ms, 0851ms total)
T1E54 001:580 JLINK_WriteReg(R2, 0x000000FF)  returns 0x00 (0000ms, 0851ms total)
T1E54 001:580 JLINK_WriteReg(R3, 0x00000000)  returns 0x00 (0000ms, 0851ms total)
T1E54 001:580 JLINK_WriteReg(R4, 0x00000000)  returns 0x00 (0000ms, 0851ms total)
T1E54 001:580 JLINK_WriteReg(R5, 0x00000000)  returns 0x00 (0000ms, 0851ms total)
T1E54 001:580 JLINK_WriteReg(R6, 0x00000000)  returns 0x00 (0000ms, 0851ms total)
T1E54 001:580 JLINK_WriteReg(R7, 0x00000000)  returns 0x00 (0000ms, 0851ms total)
T1E54 001:580 JLINK_WriteReg(R8, 0x00000000)  returns 0x00 (0000ms, 0851ms total)
T1E54 001:580 JLINK_WriteReg(R9, 0x20003D00)  returns 0x00 (0000ms, 0851ms total)
T1E54 001:580 JLINK_WriteReg(R10, 0x00000000)  returns 0x00 (0000ms, 0851ms total)
T1E54 001:580 JLINK_WriteReg(R11, 0x00000000)  returns 0x00 (0000ms, 0851ms total)
T1E54 001:580 JLINK_WriteReg(R12, 0x00000000)  returns 0x00 (0000ms, 0851ms total)
T1E54 001:580 JLINK_WriteReg(R13 (SP), 0x20009000)  returns 0x00 (0000ms, 0851ms total)
T1E54 001:580 JLINK_WriteReg(R14, 0x20000001)  returns 0x00 (0000ms, 0851ms total)
T1E54 001:580 JLINK_WriteReg(R15 (PC), 0x20001A34)  returns 0x00 (0000ms, 0851ms total)
T1E54 001:580 JLINK_WriteReg(XPSR, 0x01000000)  returns 0x00 (0000ms, 0851ms total)
T1E54 001:580 JLINK_WriteReg(MSP, 0x20009000)  returns 0x00 (0000ms, 0851ms total)
T1E54 001:580 JLINK_WriteReg(PSP, 0x20009000)  returns 0x00 (0000ms, 0851ms total)
T1E54 001:580 JLINK_WriteReg(CFBP, 0x00000000)  returns 0x00 (0000ms, 0851ms total)
T1E54 001:580 JLINK_SetBPEx(Addr = 0x20000000, Type = 0xFFFFFFF2)  returns 0x00000010 (0000ms, 0851ms total)
T1E54 001:580 JLINK_Go() (0002ms, 0853ms total)
T1E54 001:582 JLINK_IsHalted() -- CPU_ReadMem(2 bytes @ 0x20000000)  returns TRUE (0004ms, 0857ms total)
T1E54 001:586 JLINK_ReadReg(R15 (PC))  returns 0x20000000 (0000ms, 0853ms total)
T1E54 001:586 JLINK_ClrBPEx(BPHandle = 0x00000010)  returns 0x00 (0000ms, 0853ms total)
T1E54 001:586 JLINK_ReadReg(R0)  returns 0xFFFFFFFF (0000ms, 0853ms total)
T1E54 001:586 JLINK_WriteReg(R0, 0x00014000)  returns 0x00 (0000ms, 0853ms total)
T1E54 001:586 JLINK_WriteReg(R1, 0x00001000)  returns 0x00 (0000ms, 0853ms total)
T1E54 001:586 JLINK_WriteReg(R2, 0x000000FF)  returns 0x00 (0000ms, 0853ms total)
T1E54 001:586 JLINK_WriteReg(R3, 0x00000000)  returns 0x00 (0000ms, 0853ms total)
T1E54 001:586 JLINK_WriteReg(R4, 0x00000000)  returns 0x00 (0000ms, 0853ms total)
T1E54 001:586 JLINK_WriteReg(R5, 0x00000000)  returns 0x00 (0000ms, 0853ms total)
T1E54 001:586 JLINK_WriteReg(R6, 0x00000000)  returns 0x00 (0000ms, 0853ms total)
T1E54 001:586 JLINK_WriteReg(R7, 0x00000000)  returns 0x00 (0000ms, 0853ms total)
